Circuit: * D:\facultad\Circuitos electronicos\CircuitosElectronicos\TL4\simulaciones\CircuitoCompleto.asc

Direct Newton iteration for .op point succeeded.
Semiconductor Device Operating Points:
                        --- Bipolar Transistors ---
Name:       q7          q6          q5          q4          q3
Model:    bc548b      bc548b      bc548b      bc548b      bc548b
Ib:       8.32e-06    8.06e-06    8.32e-06    8.32e-06    8.06e-06
Ic:       2.51e-03    2.50e-03    2.51e-03    2.49e-03    2.50e-03
Vbe:      6.89e-01    6.88e-01    6.89e-01    6.89e-01    6.88e-01
Vbc:     -3.30e-01   -2.30e+00   -3.30e-01    0.00e+00   -2.30e+00
Vce:      1.02e+00    2.98e+00    1.02e+00    6.89e-01    2.98e+00
BetaDC:   3.01e+02    3.10e+02    3.01e+02    3.00e+02    3.10e+02
Gm:       9.42e-02    9.40e-02    9.42e-02    9.37e-02    9.40e-02
Rpi:      3.32e+03    3.43e+03    3.32e+03    3.32e+03    3.43e+03
Rx:       0.00e+00    0.00e+00    0.00e+00    0.00e+00    0.00e+00
Ro:       2.52e+04    2.60e+04    2.52e+04    2.52e+04    2.60e+04
Cbe:      7.86e-11    7.84e-11    7.86e-11    7.84e-11    7.84e-11
Cbc:      4.55e-12    3.16e-12    4.55e-12    5.26e-12    3.16e-12
Cjs:      0.00e+00    0.00e+00    0.00e+00    0.00e+00    0.00e+00
BetaAC:   3.13e+02    3.23e+02    3.13e+02    3.11e+02    3.23e+02
Cbx:      0.00e+00    0.00e+00    0.00e+00    0.00e+00    0.00e+00
Ft:       1.80e+08    1.83e+08    1.80e+08    1.78e+08    1.83e+08

Name:       q2          q1
Model:    bc548b      qtip41c
Ib:       1.41e-05    4.55e-03
Ic:       4.54e-03    4.72e-01
Vbe:      7.03e-01    6.92e-01
Vbc:     -3.70e+00   -4.40e+00
Vce:      4.40e+00    5.10e+00
BetaDC:   3.22e+02    1.04e+02
Gm:       1.68e-01    1.12e+01
Rpi:      1.94e+03    7.37e+00
Rx:       0.00e+00    4.17e+00
Ro:       1.46e+04    2.21e+02
Cbe:      1.09e-10    4.11e-07
Cbc:      2.79e-12    5.63e-11
Cjs:      0.00e+00    0.00e+00
BetaAC:   3.25e+02    8.26e+01
Cbx:      0.00e+00    1.38e-11
Ft:       2.38e+08    4.34e+06

                        --- JFET Transistors ---
Name:      j1
Model:    j201
Id:      1.50e-04
Vgs:    -4.04e-01
Vds:     7.15e+00
Gm:      7.55e-04
Gds:     2.95e-07
Cgs:     2.62e-12
Cgd:     2.48e-12

                        --- MOSFET Transistors ---
Name:          m1
Model:       2n7000
Id:          2.41e-03
Vgs:         2.46e+00
Vds:         1.51e+00
Vbs:         0.00e+00
Vth:         2.24e+00
Vdsat:       2.28e-01
Gm:          2.12e-02
Gds:         0.00e+00
Gmb:         0.00e+00
Cbd:         0.00e+00
Cbs:         0.00e+00
Cgsov:       1.79e-11
Cgdov:       1.07e-15
Cgbov:       0.00e+00
Cgs:         0.00e+00
Cgd:         0.00e+00
Cgb:         0.00e+00


.step x=0
.step x=0.25
.step x=0.5
.step x=0.75
.step x=1

Date: Sat Oct 29 20:16:39 2016
Total elapsed time: 0.593 seconds.

tnom = 27
temp = 27
method = trap
totiter = 10
traniter = 0
tranpoints = 0
accept = 0
rejected = 0
matrix size = 37
fillins = 14
solver = Normal
Matrix Compiler1:     173 opcodes
Matrix Compiler2: 3.45 KB object code size

