Circuit: * D:\facultad\Circuitos electronicos\CircuitosElectronicos\TL4\simulaciones\CircuitoCompletoNuevo.asc

Direct Newton iteration for .op point succeeded.
Semiconductor Device Operating Points:
                        --- Bipolar Transistors ---
Name:       q5          q4          q3          q2          q1
Model:    bc548b      bc548b      bc548b      bc548b      qtip41c
Ib:       1.13e-05    1.13e-05    1.10e-05    1.83e-05    6.08e-03
Ic:       3.45e-03    3.40e-03    3.44e-03    6.07e-03    6.01e-01
Vbe:      6.97e-01    6.97e-01    6.96e-01    7.10e-01    7.10e-01
Vbc:     -8.69e-01    0.00e+00   -2.17e+00   -5.60e+00   -6.31e+00
Vce:      1.57e+00    6.97e-01    2.87e+00    6.31e+00    7.02e+00
BetaDC:   3.07e+02    3.02e+02    3.13e+02    3.31e+02    9.88e+01
Gm:       1.28e-01    1.27e-01    1.28e-01    2.21e-01    1.38e+01
Rpi:      2.44e+03    2.44e+03    2.50e+03    1.48e+03    5.42e+00
Rx:       0.00e+00    0.00e+00    0.00e+00    0.00e+00    4.07e+00
Ro:       1.85e+04    1.85e+04    1.89e+04    1.13e+04    1.77e+02
Cbe:      9.30e-11    9.23e-11    9.29e-11    1.32e-10    4.42e-07
Cbc:      3.93e-12    5.26e-12    3.20e-12    2.48e-12    5.23e-11
Cjs:      0.00e+00    0.00e+00    0.00e+00    0.00e+00    0.00e+00
BetaAC:   3.14e+02    3.09e+02    3.20e+02    3.28e+02    7.45e+01
Cbx:      0.00e+00    0.00e+00    0.00e+00    0.00e+00    1.28e-11
Ft:       2.11e+08    2.07e+08    2.12e+08    2.62e+08    4.95e+06

                        --- JFET Transistors ---
Name:      j2          j1
Model:    j201        j201
Id:      1.31e-04    1.31e-04
Vgs:    -4.31e-01   -4.31e-01
Vds:     1.07e+01    1.01e+01
Gm:      7.08e-04    7.08e-04
Gds:     2.56e-07    2.56e-07
Cgs:     2.60e-12    2.60e-12
Cgd:     2.28e-12    2.31e-12


.step x=0
.step x=0.25
.step x=0.5
.step x=0.75
.step x=1

Date: Fri Dec 23 00:13:54 2016
Total elapsed time: 0.380 seconds.

tnom = 27
temp = 27
method = trap
totiter = 8
traniter = 0
tranpoints = 0
accept = 0
rejected = 0
matrix size = 32
fillins = 6
solver = Normal
Matrix Compiler1:     131 opcodes
Matrix Compiler2: 2.79 KB object code size

