Circuit: * D:\facultad\Circuitos electronicos\CircuitosElectronicos\TL4\simulaciones\PrimerEtapa.asc

WARNING: Node VOUT is floating.

WARNING: Less than two connections to node VOUT.  This node is used by C2.
Direct Newton iteration for .op point succeeded.
Semiconductor Device Operating Points:
                        --- JFET Transistors ---
Name:      j1
Model:    j201
Id:      1.71e-04
Vgs:    -3.76e-01
Vds:     7.04e+00
Gm:      8.08e-04
Gds:     3.37e-07
Cgs:     2.63e-12
Cgd:     2.49e-12


.step x=0
.step x=0.25
.step x=0.5
.step x=0.75
.step x=1

Date: Mon Oct 31 19:56:31 2016
Total elapsed time: 0.147 seconds.

tnom = 27
temp = 27
method = trap
totiter = 5
traniter = 0
tranpoints = 0
accept = 0
rejected = 0
matrix size = 12
fillins = 2
solver = Normal
Matrix Compiler1:      36 opcodes
Matrix Compiler2: 920 bytes object code size

