Circuit: * C:\Users\Nico\Desktop\Circuitos Electronicos I\Trabajo de laboratorio 2\Simulaciones A\op\A.asc

Direct Newton iteration for .op point succeeded.
Semiconductor Device Operating Points:
                        --- MOSFET Transistors ---
Name:          m1
Model:        bs170
Id:          8.52e-04
Vgs:         1.94e+00
Vds:         2.31e+01
Vbs:         0.00e+00
Vth:         1.82e+00
Vdsat:       1.18e-01
Gm:          1.45e-02
Gds:         0.00e+00
Gmb:         0.00e+00
Cbd:         1.22e-11
Cbs:         0.00e+00
Cgsov:       2.80e-11
Cgdov:       7.00e-12
Cgbov:       0.00e+00
Cgs:         0.00e+00
Cgd:         0.00e+00
Cgb:         0.00e+00




Measurement "vomax" FAIL'ed

Measurement "vimax" FAIL'ed


Date: Sun May 01 04:19:24 2016
Total elapsed time: 0.038 seconds.

tnom = 27
temp = 27
method = trap
totiter = 8
traniter = 0
tranpoints = 0
accept = 0
rejected = 0
matrix size = 11
fillins = 0
solver = Normal
Matrix Compiler1: 692 bytes object code size
Matrix Compiler2: 881 bytes object code size

